 ****** HSPICE -- D-2010.03-SP1 32-BIT (May 26 2010) winnt ******               
  Copyright (C) 2010 Synopsys, Inc. All Rights Reserved.                        
  Unpublished-rights reserved under US copyright laws.
  This program is protected by law and is subject to the 
  terms and conditions of the license agreement from Synopsys.
  Use of this program is your acceptance to be bound by the 
  license agreement. HSPICE is the trademark of Synopsys, Inc.
  Input File: c:\users\amir\google drive\university\masters\2\lpsd\hspice\1.sp  
  lic:  
  lic: FLEXlm: v8.5b 
  lic: USER:   Amir                 HOSTNAME: DESKTOP-6DI6PJG 
  lic: HOSTID: "68ecc5c71acc 00ff879503b5 444553544f53 68ecc5c71ac8 68ecc5c71ac9
  
  lic: Using FLEXlm license file: 
  lic: 27000@elena 
  lic: Checkout 1 hspice 
  lic: License/Maintenance for hspice will expire on 31-dec-2020/2007.9 
  lic: NODE LOCKED license on hostid "68ecc5c71acc 00ff879503b5 444553544f53 68e
 c
  lic:   
 Init: read install configuration file: C:\synopsys\Hspice_D-2010.03-SP1\meta.cfg
1****** HSPICE -- D-2010.03-SP1 32-BIT (May 26 2010) winnt ******               
 ******  
 simple cmos inverter

  ******  mos   model parameters tnom=  25.000 temp=  25.000 *****
 ***************************************************************************
 *** common model parameters  model name:   0:nmos1    model type:nmos   ***
 ***************************************************************************
     names  values   units     names  values   units     names  values   units
     -----  ------   -----     -----  ------   -----     -----  ------   -----

   1*** geometry parameters ***
       ld=   0.    meters      lmlt=   1.00                wd=   0.    meters 
     wmlt=   1.00                xl=   0.    meters        xw=   0.    meters 
     lref=   0.    meters      wref=   0.    meters      lref=   0.    meters 
     wref=   0.    meters     xlref=   0.    meters     xwref=   0.    meters 
     lmin=   0.    meters      wmin=   0.    meters      lmax=   0.    meters 
     wmax=   0.    meters 

   2*** threshold voltage parameters ***
      vto= 133.88m volts        nss=   0.    1/cm**2      tpg=   1.00         
      phi= 579.84m volts      gamma= 527.63m v**0.5      bulk=  gnd           
    ngate=   0.    cm**3       nsub= 1.0e+15 1/cm**3   delvto=   0.    volts  

   3*** gate overlap capacitance parameters ***
     cgbo=   0.    f/meter     cgdo=   0.    f/meter     cgso=   0.    f/meter
     meto=   0.    meters 

   4*** gate capacitance parameters ***
    capop=   2.00               cf1=   0.    volts        cf2= 100.00m volts  
      cf3=   1.00  volts        cf4=  50.00               cf5= 666.67m        
      cf6= 500.00               xqc= 500.00m              tox= 100.00n meters 
      cox= 345.31u f/m**2 

   5*** diffusion parasitic parameters ***
      acm=   0.                  is=  10.00f amps          js=   0.    a/m**2 
      jsw=   0.    amp/m        nds=   1.00               cbd=   0.    farad  
      cbs=   0.    farad         cj= 101.85u f/m**2      cjsw=   0.    f/m    
   cjgate=   0.    f/m           mj= 500.00m             mjsw= 330.00m        
       pb= 800.00m volts        php= 800.00m volts         tt=   0.    secs   
     hdif=   0.    meters      ldif=   0.    meters        rd=   0.    ohms   
       rs=   0.    ohms         rsh=   0.    ohms/sq       fc=   0.           
    alpha=   0.                 vcr=   0.    volts      iirat=   0.           
      rdc=   0.    ohms         rsc=   0.    ohms           n=   1.00         
     vnds=  -1.00  volts  

   6*** temperature effect parameters ***
     tlev=   0.               tlevc=   0.                  eg=   1.11  ev     
     gap1= 702.00u ev/deg      gap2=   1.11k deg          xti=   0.           
      bex=  -1.50               tcv=   0.    v/deg k      trd=   0.    /deg   
      trs=   0.    /deg         cta=   0.    /deg         ctp=   0.    /deg   

   7*** noise parameters ***
       kf=   0.                  af=   1.00              nlev=   2.00         
   gdsnoi=   1.00         

   ***  level  1  model parameters  ***

   lambda=   0.    /v            kp=  20.72u a/v**2 
 ***************************************************************************
 *** common model parameters  model name:   0:pmos1    model type:pmos   ***
 ***************************************************************************
     names  values   units     names  values   units     names  values   units
     -----  ------   -----     -----  ------   -----     -----  ------   -----

   1*** geometry parameters ***
       ld=   0.    meters      lmlt=   1.00                wd=   0.    meters 
     wmlt=   1.00                xl=   0.    meters        xw=   0.    meters 
     lref=   0.    meters      wref=   0.    meters      lref=   0.    meters 
     wref=   0.    meters     xlref=   0.    meters     xwref=   0.    meters 
     lmin=   0.    meters      wmin=   0.    meters      lmax=   0.    meters 
     wmax=   0.    meters 

   2*** threshold voltage parameters ***
      vto=-133.88m volts        nss=   0.    1/cm**2      tpg=   1.00         
      phi= 579.84m volts      gamma= 527.63m v**0.5      bulk=  gnd           
    ngate=   0.    cm**3       nsub= 1.0e+15 1/cm**3   delvto=   0.    volts  

   3*** gate overlap capacitance parameters ***
     cgbo=   0.    f/meter     cgdo=   0.    f/meter     cgso=   0.    f/meter
     meto=   0.    meters 

   4*** gate capacitance parameters ***
    capop=   2.00               cf1=   0.    volts        cf2= 100.00m volts  
      cf3=   1.00  volts        cf4=  50.00               cf5= 666.67m        
      cf6= 500.00               xqc= 500.00m              tox= 100.00n meters 
      cox= 345.31u f/m**2 

   5*** diffusion parasitic parameters ***
      acm=   0.                  is=  10.00f amps          js=   0.    a/m**2 
      jsw=   0.    amp/m        nds=   1.00               cbd=   0.    farad  
      cbs=   0.    farad         cj= 101.85u f/m**2      cjsw=   0.    f/m    
   cjgate=   0.    f/m           mj= 500.00m             mjsw= 330.00m        
       pb= 800.00m volts        php= 800.00m volts         tt=   0.    secs   
     hdif=   0.    meters      ldif=   0.    meters        rd=   0.    ohms   
       rs=   0.    ohms         rsh=   0.    ohms/sq       fc=   0.           
    alpha=   0.                 vcr=   0.    volts      iirat=   0.           
      rdc=   0.    ohms         rsc=   0.    ohms           n=   1.00         
     vnds=  -1.00  volts  

   6*** temperature effect parameters ***
     tlev=   0.               tlevc=   0.                  eg=   1.11  ev     
     gap1= 702.00u ev/deg      gap2=   1.11k deg          xti=   0.           
      bex=  -1.50               tcv=   0.    v/deg k      trd=   0.    /deg   
      trs=   0.    /deg         cta=   0.    /deg         ctp=   0.    /deg   

   7*** noise parameters ***
       kf=   0.                  af=   1.00              nlev=   2.00         
   gdsnoi=   1.00         

   ***  level  1  model parameters  ***

   lambda=   0.    /v            kp=   8.63u a/v**2 
 
      
 **info** set option symb=1 internally to help for convergence.
 *****************************************************************
 ******  option summary
 ******
 runlvl  = 3         bypass  = 2         
1****** HSPICE -- D-2010.03-SP1 32-BIT (May 26 2010) winnt ******               
 ******  
 simple cmos inverter

  ******  operating point information tnom=  25.000 temp=  25.000 *****
 ***** operating point status is all       simulation time is     0.     
    node    =voltage      node    =voltage      node    =voltage

 +0:1       =   0.      0:2       =   1.0000  0:3       =   1.0000 


 ****  voltage sources

 subckt                        
 element  0:vcc      0:vin     
  volts      1.0000     0.     
  current   -2.0100p    0.     
  power      2.0100p    0.     

     total voltage source power dissipation=    2.0100p       watts




 **** mosfets


 subckt                        
 element  0:m1       0:m2      
 model    0:pmos1    0:nmos1   
 region       Linear     Cutoff
  id        -2.0100p    0.     
  ibs        0.         0.     
  ibd      2.688e-22  -10.0000f
  vgs       -1.0000     0.     
  vds      -26.8822n    1.0000 
  vbs        0.         0.     
  vth     -133.8819m  133.8819m
  vdsat    -26.8822n    0.     
  vod     -866.1181m -133.8819m
  beta      86.3286u   20.7189u
  gam eff  527.6252m  527.6252m
  gm         2.3207p    0.     
  gds       74.7708u    0.     
  gmb      804.0076f    0.     
  cdtot      3.4963a  1.212e-22
  cgtot      7.0333a  2.533e-19
  cstot      3.4963a  6.059e-20
  cbtot    4.061e-20  1.926e-19
  cgs        3.4963a  6.059e-20
  cgd        3.4963a  1.212e-22



1****** HSPICE -- D-2010.03-SP1 32-BIT (May 26 2010) winnt ******               
 ******  
 simple cmos inverter

  ******  operating point information tnom=  25.000 temp=  25.000 *****
 ***** operating point status is voltage   simulation time is     0.     
    node    =voltage      node    =voltage      node    =voltage

 +0:1       =   1.0000  0:2       = 112.0090n 0:3       =   1.0000 

 ******  
 simple cmos inverter

  ******  transient analysis tnom=  25.000 temp=  25.000 *****

a


 legend:

  a: v(1)
  b: v(2)

      time       v(1)
 (ab      )    -500.0000m       0.          500.0000m       1.0000       1.5000 
                      +             +             +             +             + 
    0.         1.000 -+------+------b------+------+------+------a------+------+-
  500.0000p    1.000  +      +      b      +      +      +      a      +      + 
    1.0000n    1.000  +      +      b      +      +      +      a      +      + 
    1.5000n  500.000m +      +      b      +      a      +      +      +      + 
    2.0000n    0.     +      +      2      +      +      +      +      +      + 
    2.5000n    0.     +      +      2      +      +      +      +      +      + 
    3.0000n    0.     +      +      2      +      +      +      +      +      + 
    3.5000n    0.     +      +      2      +      +      +      +      +      + 
    4.0000n    0.     +      +      2      +      +      +      +      +      + 
    4.5000n    0.     +      +      2      +      +      +      +      +      + 
    5.0000n    0.    -+------+------2------+------+------+------+------+------+-
    5.5000n    0.     +      +      2      +      +      +      +      +      + 
    6.0000n    0.     +      +      2      +      +      +      +      +      + 
    6.5000n    0.     +      +      2      +      +      +      +      +      + 
    7.0000n    0.     +      +      2      +      +      +      +      +      + 
    7.5000n    0.     +      +      2      +      +      +      +      +      + 
    8.0000n    0.     +      +      2      +      +      +      +      +      + 
    8.5000n    0.     +      +      2      +      +      +      +      +      + 
    9.0000n    0.     +      +      2      +      +      +      +      +      + 
    9.5000n    0.     +      +      2      +      +      +      +      +      + 
   10.0000n    0.    -+------+------2------+------+------+------+------+------+-
   10.5000n    0.     +      +      2      +      +      +      +      +      + 
   11.0000n    0.     +      +      2      +      +      +      +      +      + 
   11.5000n    0.     +      +      2      +      +      +      +      +      + 
   12.0000n    0.     +      +      2      +      +      +      +      +      + 
   12.5000n    0.     +      +      2      +      +      +      +      +      + 
   13.0000n    0.     +      +      2      +      +      +      +      +      + 
   13.5000n    0.     +      +      2      +      +      +      +      +      + 
   14.0000n    0.     +      +      2      +      +      +      +      +      + 
   14.5000n    0.     +      +      2      +      +      +      +      +      + 
   15.0000n    0.    -+------+------2------+------+------+------+------+------+-
   15.5000n    0.     +      +      2      +      +      +      +      +      + 
   16.0000n    0.     +      +      2      +      +      +      +      +      + 
   16.5000n    0.     +      +      2      +      +      +      +      +      + 
   17.0000n    0.     +      +      2      +      +      +      +      +      + 
   17.5000n    0.     +      +      2      +      +      +      +      +      + 
   18.0000n    0.     +      +      2      +      +      +      +      +      + 
   18.5000n    0.     +      +      2      +      +      +      +      +      + 
   19.0000n    0.     +      +      2      +      +      +      +      +      + 
   19.5000n    0.     +      +      2      +      +      +      +      +      + 
   20.0000n    0.    -+------+------2------+------+------+------+------+------+-
   20.5000n    0.     +      +      2      +      +      +      +      +      + 
   21.0000n    0.     +      +      2      +      +      +      +      +      + 
   21.5000n    0.     +      +      2      +      +      +      +      +      + 
   22.0000n    0.     +      +      2      +      +      +      +      +      + 
   22.5000n    0.     +      +      2      +      +      +      +      +      + 
   23.0000n    0.     +      +      2      +      +      +      +      +      + 
   23.5000n    0.     +      +      2      +      +      +      +      +      + 
   24.0000n    0.     +      +      2      +      +      +      +      +      + 
   24.5000n    0.     +      +      2      +      +      +      +      +      + 
   25.0000n    0.    -+------+------2------+------+------+------+------+------+-
   25.5000n    0.     +      +      2      +      +      +      +      +      + 
   26.0000n    0.     +      +      2      +      +      +      +      +      + 
   26.5000n    0.     +      +      2      +      +      +      +      +      + 
   27.0000n    0.     +      +      2      +      +      +      +      +      + 
   27.5000n    0.     +      +      2      +      +      +      +      +      + 
   28.0000n    0.     +      +      2      +      +      +      +      +      + 
   28.5000n    0.     +      +      2      +      +      +      +      +      + 
   29.0000n    0.     +      +      2      +      +      +      +      +      + 
   29.5000n    0.     +      +      2      +      +      +      +      +      + 
   30.0000n    0.    -+------+------2------+------+------+------+------+------+-
   30.5000n    0.     +      +      2      +      +      +      +      +      + 
   31.0000n    0.     +      +      2      +      +      +      +      +      + 
   31.5000n    0.     +      +      2      +      +      +      +      +      + 
   32.0000n    0.     +      +      2      +      +      +      +      +      + 
   32.5000n    0.     +      +      2      +      +      +      +      +      + 
   33.0000n    0.     +      +      2      +      +      +      +      +      + 
   33.5000n    0.     +      +      2      +      +      +      +      +      + 
   34.0000n    0.     +      +      2      +      +      +      +      +      + 
   34.5000n    0.     +      +      2      +      +      +      +      +      + 
   35.0000n    0.    -+------+------2------+------+------+------+------+------+-
   35.5000n    0.     +      +      2      +      +      +      +      +      + 
   36.0000n    0.     +      +      2      +      +      +      +      +      + 
   36.5000n    0.     +      +      2      +      +      +      +      +      + 
   37.0000n    0.     +      +      2      +      +      +      +      +      + 
   37.5000n    0.     +      +      2      +      +      +      +      +      + 
   38.0000n    0.     +      +      2      +      +      +      +      +      + 
   38.5000n    0.     +      +      2      +      +      +      +      +      + 
   39.0000n    0.     +      +      2      +      +      +      +      +      + 
   39.5000n    0.     +      +      2      +      +      +      +      +      + 
   40.0000n    0.    -+------+------2------+------+------+------+------+------+-
   40.5000n    0.     +      +      2      +      +      +      +      +      + 
   41.0000n    0.     +      +      2      +      +      +      +      +      + 
   41.5000n    0.     +      +      2      +      +      +      +      +      + 
   42.0000n    0.     +      +      2      +      +      +      +      +      + 
   42.5000n  500.000m +      +      b      +      a      +      +      +      + 
   43.0000n    1.000  +      +      b      +      +      +      a      +      + 
   43.5000n    1.000  +      +      b      +      +      +      a      +      + 
   44.0000n    1.000  +      +      b      +      +      +      a      +      + 
   44.5000n    1.000  +      +      b      +      +      +      a      +      + 
   45.0000n    1.000 -+------+------b------+------+------+------a------+------+-
   45.5000n    1.000  +      +      b      +      +      +      a      +      + 
   46.0000n    1.000  +      +      b      +      +      +      a      +      + 
   46.5000n    1.000  +      +      b      +      +      +      a      +      + 
   47.0000n    1.000  +      +      b      +      +      +      a      +      + 
   47.5000n    1.000  +      +      b      +      +      +      a      +      + 
   48.0000n    1.000  +      +      b      +      +      +      a      +      + 
   48.5000n    1.000  +      +      b      +      +      +      a      +      + 
   49.0000n    1.000  +      +      b      +      +      +      a      +      + 
   49.5000n    1.000  +      +      b      +      +      +      a      +      + 
   50.0000n    1.000 -+------+------b------+------+------+------a------+------+-
   50.5000n    1.000  +      +      b      +      +      +      a      +      + 
   51.0000n    1.000  +      +      b      +      +      +      a      +      + 
   51.5000n    1.000  +      +      b      +      +      +      a      +      + 
   52.0000n    1.000  +      +      b      +      +      +      a      +      + 
   52.5000n    1.000  +      +      b      +      +      +      a      +      + 
   53.0000n    1.000  +      +      b      +      +      +      a      +      + 
   53.5000n    1.000  +      +      b      +      +      +      a      +      + 
   54.0000n    1.000  +      +      b      +      +      +      a      +      + 
   54.5000n    1.000  +      +      b      +      +      +      a      +      + 
   55.0000n    1.000 -+------+------b------+------+------+------a------+------+-
   55.5000n    1.000  +      +      b      +      +      +      a      +      + 
   56.0000n    1.000  +      +      b      +      +      +      a      +      + 
   56.5000n    1.000  +      +      b      +      +      +      a      +      + 
   57.0000n    1.000  +      +      b      +      +      +      a      +      + 
   57.5000n    1.000  +      +      b      +      +      +      a      +      + 
   58.0000n    1.000  +      +      b      +      +      +      a      +      + 
   58.5000n    1.000  +      +      b      +      +      +      a      +      + 
   59.0000n    1.000  +      +      b      +      +      +      a      +      + 
   59.5000n    1.000  +      +      b      +      +      +      a      +      + 
   60.0000n    1.000 -+------+------b------+------+------+------a------+------+-
   60.5000n    1.000  +      +      b      +      +      +      a      +      + 
   61.0000n    1.000  +      +      b      +      +      +      a      +      + 
   61.5000n    1.000  +      +      b      +      +      +      a      +      + 
   62.0000n    1.000  +      +      b      +      +      +      a      +      + 
